T3D14 2836:822 SEGGER J-Link V4.96d Log File (0000ms, 1073ms total)
T3D14 2836:822 DLL Compiled: Jan 29 2015 11:45:37 (0000ms, 1073ms total)
T3D14 2836:822 Logging started @ 2020-09-12 20:42 (0000ms, 1073ms total)
T3D14 2836:822 JLINK_SetWarnOutHandler(...) (0001ms, 1074ms total)
T3D14 2836:823 JLINK_OpenEx(...)
Firmware: J-Link V9 compiled Dec  2 2017 15:35:20
Hardware: V9.20
S/N: 269200585
Feature(s): GDB, RDI, FlashBP, FlashDL, JFlash, RDDI  returns O.K. (0288ms, 1362ms total)
T3D14 2837:111 JLINK_GetEmuCaps()  returns 0xB9FF7BBF (0000ms, 1362ms total)
T3D14 2837:111 JLINK_TIF_GetAvailable(...) (0001ms, 1363ms total)
T3D14 2837:113 JLINK_SetErrorOutHandler(...) (0000ms, 1363ms total)
T3D14 2837:113 JLINK_ExecCommand("ProjectFile = "D:\Projects\MCU\K66\ÈðÈø±­_K66_A1_910_¸úËæ³µ3\PRJ\JLinkSettings.ini"", ...)  returns 0x00 (0002ms, 1365ms total)
T3D14 2837:129 JLINK_ExecCommand("Device = MK66FX1M0xxx18", ...)Device "MK66FX1M0XXX18" selected.  returns 0x00 (0011ms, 1377ms total)
T3D14 2837:141 JLINK_ExecCommand("DisableConnectionTimeout", ...)  returns 0x01 (0000ms, 1377ms total)
T3D14 2837:141 JLINK_GetHardwareVersion()  returns 0x16760 (0000ms, 1377ms total)
T3D14 2837:141 JLINK_GetDLLVersion()  returns 49604 (0000ms, 1377ms total)
T3D14 2837:141 JLINK_GetFirmwareString(...) (0000ms, 1377ms total)
T3D14 2837:211 JLINK_GetDLLVersion()  returns 49604 (0000ms, 1377ms total)
T3D14 2837:211 JLINK_GetCompileDateTime() (0000ms, 1377ms total)
T3D14 2837:238 JLINK_GetFirmwareString(...) (0000ms, 1377ms total)
T3D14 2837:273 JLINK_GetHardwareVersion()  returns 0x16760 (0000ms, 1377ms total)
T3D14 2837:356 JLINK_TIF_Select(JLINKARM_TIF_JTAG)  returns 0x00 (0003ms, 1380ms total)
T3D14 2837:359 JLINK_SetSpeed(5000) (0001ms, 1381ms total)
T3D14 2837:360 JLINK_GetIdData(...) >0x2F8 JTAG>TotalIRLen = 4, IRPrint = 0x01 >0x30 JTAG> >0x210 JTAG> >0x40 JTAG> >0x40 JTAG> >0x40 JTAG> >0x30 JTAG> >0x40 JTAG> >0x40 JTAG> >0x40 JTAG> >0x40 JTAG> >0x40 JTAG> >0x40 JTAG> >0x40 JTAG> >0x40 JTAG> >0x40 JTAG> >0x40 JTAG> >0x40 JTAG> >0x40 JTAG> >0x40 JTAG> >0x40 JTAG> >0x40 JTAG> >0x40 JTAG> >0x40 JTAG> >0x40 JTAG> >0x40 JTAG> >0x40 JTAG> >0x40 JTAG> >0x2F8 JTAG>TotalIRLen = 4, IRPrint = 0x01 >0x30 JTAG> >0x210 JTAG> >0x70 JTAG> >0x40 JTAG> >0x40 JTAG>
 >0x40 JTAG> >0x48 JTAG> >0x78 JTAG> >0x40 JTAG> >0x30 JTAG> >0x40 JTAG> >0x40 JTAG> >0x30 JTAG> >0x40 JTAG> >0x48 JTAG>Found Cortex-M4 r0p1, Little endian. -- CPU_WriteMem(4 bytes @ 0xE0002000) -- CPU_ReadMem(4 bytes @ 0xE000EDF0) -- CPU_ReadMem(4 bytes @ 0xE0002000)FPUnit: 6 code (BP) slots and 2 literal slots -- CPU_ReadMem(4 bytes @ 0xE000EDFC) -- CPU_ReadMem(4 bytes @ 0xE0001000) -- CPU_WriteMem(4 bytes @ 0xE0001000) -- CPU_ReadMem(4 bytes @ 0xE000ED88) -- CPU_WriteMem(4 bytes @ 0xE000ED88)
 -- CPU_ReadMem(4 bytes @ 0xE000ED88) -- CPU_WriteMem(4 bytes @ 0xE000ED88) -- CPU_ReadMem(4 bytes @ 0xE00FF010)TPIU fitted. -- CPU_ReadMem(4 bytes @ 0xE00FF014)ETM fitted. -- CPU_ReadMem(4 bytes @ 0xE00FF018) -- CPU_ReadMem(4 bytes @ 0xE0042FE0) -- CPU_ReadMem(4 bytes @ 0xE0042FE4)ETB present. -- CPU_ReadMem(4 bytes @ 0xE00FF01C) -- CPU_ReadMem(4 bytes @ 0xE0043FE0) -- CPU_ReadMem(4 bytes @ 0xE0043FE4)CSTF present. -- CPU_ReadMem(4 bytes @ 0xE00FF020) -- CPU_ReadMem(2 bytes @ 0x40052000) ScanLen=4
 NumDevices=1 aId[0]=0x4BA00477 aIrRead[0]=0 aScanLen[0]=0 aScanRead[0]=0 (0105ms, 1486ms total)
T3D14 2837:465 JLINK_JTAG_GetDeviceID(DeviceIndex = 0)  returns 0x4BA00477 (0000ms, 1486ms total)
T3D14 2837:465 JLINK_JTAG_GetDeviceInfo(DeviceIndex = 0)  returns 0x00 (0000ms, 1486ms total)
T3D14 2837:465 JLINK_GetDLLVersion()  returns 49604 (0000ms, 1486ms total)
T3D14 2837:465 JLINK_CORE_GetFound()  returns 0xE0000FF (0001ms, 1487ms total)
T3D14 2837:466 JLINK_GetDebugInfo(0x100) -- Value=0xE00FF003  returns 0x00 (0000ms, 1487ms total)
T3D14 2837:470 JLINK_GetDebugInfo(0x100) -- Value=0xE00FF003  returns 0x00 (0000ms, 1487ms total)
T3D14 2837:470 JLINK_GetDebugInfo(0x101)  returns 0xFFFFFFFF (0000ms, 1487ms total)
T3D14 2837:470 JLINK_ReadMemEx(0xE0041FF0, 0x0010 Bytes, ..., AccessWidth = 33554436) -- CPU is running -- CPU_ReadMem(16 bytes @ 0xE0041FF0) - Data: 0D 00 00 00 90 00 00 00 05 00 00 00 B1 00 00 00  returns 0x10 (0002ms, 1489ms total)
T3D14 2837:472 JLINK_ReadMemEx(0xE0041FD0, 0x0020 Bytes, ..., AccessWidth = 33554436) -- CPU is running -- CPU_ReadMem(32 bytes @ 0xE0041FD0) - Data: 04 00 00 00 00 00 00 00 00 00 00 00 00 00 00 00 ...  returns 0x20 (0001ms, 1490ms total)
T3D14 2837:473 JLINK_GetDebugInfo(0x102)  returns 0xFFFFFFFF (0000ms, 1490ms total)
T3D14 2837:473 JLINK_GetDebugInfo(0x103)  returns 0xFFFFFFFF (0000ms, 1490ms total)
T3D14 2837:473 JLINK_ReadMemEx(0xE0040FF0, 0x0010 Bytes, ..., AccessWidth = 33554436) -- CPU is running -- CPU_ReadMem(16 bytes @ 0xE0040FF0) - Data: 0D 00 00 00 90 00 00 00 05 00 00 00 B1 00 00 00  returns 0x10 (0001ms, 1491ms total)
T3D14 2837:474 JLINK_GetDebugInfo(0x104)  returns 0xFFFFFFFF (0000ms, 1491ms total)
T3D14 2837:474 JLINK_GetDebugInfo(0x105)  returns 0xFFFFFFFF (0000ms, 1491ms total)
T3D14 2837:474 JLINK_GetDebugInfo(0x106)  returns 0xFFFFFFFF (0000ms, 1491ms total)
T3D14 2837:474 JLINK_GetDebugInfo(0x107)  returns 0xFFFFFFFF (0000ms, 1491ms total)
T3D14 2837:474 JLINK_GetDebugInfo(0x10C)  returns 0xFFFFFFFF (0000ms, 1491ms total)
T3D14 2837:474 JLINK_GetDebugInfo(0x01)  returns 0xFFFFFFFF (0000ms, 1491ms total)
T3D14 2837:474 JLINK_GetDeviceFamily()  returns 14 (0000ms, 1491ms total)
T3D14 2837:474 JLINK_ReadMemU32(0xE000ED00, 0x0001 Items, ...) -- CPU is running -- CPU_ReadMem(4 bytes @ 0xE000ED00) - Data: 41 C2 0F 41  returns 0x01 (0001ms, 1492ms total)
T3D14 2837:475 JLINK_GetDebugInfo(0x10F)  returns 0xFFFFFFFF (0000ms, 1492ms total)
T3D14 2837:475 JLINK_SetResetType(JLINKARM_RESET_TYPE_NORMAL)  returns JLINKARM_RESET_TYPE_SOFT (0000ms, 1492ms total)
T3D14 2837:475 JLINK_Reset() -- CPU is running -- CPU_WriteMem(4 bytes @ 0xE000EDF0) -- CPU is running -- CPU_WriteMem(4 bytes @ 0xE000EDFC) -- CPU is running -- CPU_WriteMem(4 bytes @ 0xE000ED0C) -- CPU is running -- CPU_ReadMem(4 bytes @ 0xE000EDF0) -- CPU is running -- CPU_ReadMem(4 bytes @ 0xE000EDF0) -- CPU is running -- CPU_WriteMem(4 bytes @ 0xE000EDF0) -- CPU is running -- CPU_WriteMem(4 bytes @ 0xE000EDFC) -- CPU is running -- CPU_ReadMem(4 bytes @ 0xE000EDF0) >0x78 JTAG> >0x40 JTAG> >0x30 JTAG>
 >0x40 JTAG> >0x48 JTAG> >0x40 JTAG> -- CPU_ReadMem(8 bytes @ 0x20000000) -- CPU_WriteMem(8 bytes @ 0x20000000) >0x2C8 JTAG> >0x1E8 JTAG> >0x1E8 JTAG> >0x1E8 JTAG> >0x1E8 JTAG> >0x218 JTAG> >0x218 JTAG> >0x170 JTAG> >0x1598 JTAG> -- CPU_WriteMem(8 bytes @ 0x20000000) -- CPU_WriteMem(4 bytes @ 0xE000EDFC) -- CPU_WriteMem(4 bytes @ 0xE0001028) -- CPU_WriteMem(4 bytes @ 0xE0001038) -- CPU_WriteMem(4 bytes @ 0xE0001048) -- CPU_WriteMem(4 bytes @ 0xE0001058) -- CPU_WriteMem(4 bytes @ 0xE0002000)
 -- CPU_ReadMem(4 bytes @ 0xE000EDFC) -- CPU_ReadMem(4 bytes @ 0xE0001000) (0045ms, 1537ms total)
T3D14 2837:520 JLINK_Halt()  returns 0x00 (0000ms, 1537ms total)
T3D14 2837:520 JLINK_ReadMemU32(0xE000EDF0, 0x0001 Items, ...) -- CPU_ReadMem(4 bytes @ 0xE000EDF0) - Data: 03 00 03 00  returns 0x01 (0002ms, 1539ms total)
T3D14 2837:522 JLINK_WriteU32(0xE000EDF0, 0xA05F0003) -- CPU_WriteMem(4 bytes @ 0xE000EDF0)  returns 0x00 (0000ms, 1539ms total)
T3D14 2837:522 JLINK_WriteU32(0xE000EDFC, 0x01000000) -- CPU_WriteMem(4 bytes @ 0xE000EDFC)  returns 0x00 (0001ms, 1540ms total)
T3D14 2837:547 JLINK_GetHWStatus(...)  returns 0x00 (0002ms, 1542ms total)
T3D14 2837:562 JLINK_GetNumBPUnits(Type = 0xFFFFFF00)  returns 0x06 (0000ms, 1542ms total)
T3D14 2837:562 JLINK_GetNumBPUnits(Type = 0xF0)  returns 0x2000 (0000ms, 1542ms total)
T3D14 2837:562 JLINK_GetNumWPUnits()  returns 0x04 (0000ms, 1542ms total)
T3D14 2837:576 JLINK_GetSpeed()  returns 0x1388 (0000ms, 1542ms total)
T3D14 2837:585 JLINK_ReadMemU32(0xE000E004, 0x0001 Items, ...) -- CPU_ReadMem(4 bytes @ 0xE000E004) - Data: 03 00 00 00  returns 0x01 (0001ms, 1543ms total)
T3D14 2837:586 JLINK_ReadMemU32(0xE000E004, 0x0001 Items, ...) -- CPU_ReadMem(4 bytes @ 0xE000E004) - Data: 03 00 00 00  returns 0x01 (0000ms, 1543ms total)
T3D14 2837:586 JLINK_WriteMemEx(0xE0001000, 0x001C Bytes, ..., AccessWidth = 33554436) - Data: 01 00 00 00 00 00 00 00 00 00 00 00 00 00 00 00 ... -- CPU_WriteMem(28 bytes @ 0xE0001000)  returns 0x1C (0003ms, 1546ms total)
T3D14 2837:589 JLINK_Halt()  returns 0x00 (0000ms, 1546ms total)
T3D14 2837:589 JLINK_IsHalted()  returns TRUE (0000ms, 1546ms total)
T3D14 2837:597 JLINK_WriteMem(0x20000000, 0x0440 Bytes, ...) - Data: 00 BE 0A E0 0D 78 2D 06 68 40 08 24 40 00 00 D3 ... -- CPU_WriteMem(1088 bytes @ 0x20000000)  returns 0x440 (0004ms, 1550ms total)
T3D14 2837:601 JLINK_WriteReg(R0, 0x00000000)  returns 0x00 (0000ms, 1550ms total)
T3D14 2837:601 JLINK_WriteReg(R1, 0x00B71B00)  returns 0x00 (0000ms, 1550ms total)
T3D14 2837:601 JLINK_WriteReg(R2, 0x00000001)  returns 0x00 (0000ms, 1550ms total)
T3D14 2837:601 JLINK_WriteReg(R3, 0x00000000)  returns 0x00 (0000ms, 1550ms total)
T3D14 2837:601 JLINK_WriteReg(R4, 0x00000000)  returns 0x00 (0000ms, 1550ms total)
T3D14 2837:601 JLINK_WriteReg(R5, 0x00000000)  returns 0x00 (0000ms, 1550ms total)
T3D14 2837:601 JLINK_WriteReg(R6, 0x00000000)  returns 0x00 (0000ms, 1550ms total)
T3D14 2837:601 JLINK_WriteReg(R7, 0x00000000)  returns 0x00 (0000ms, 1550ms total)
T3D14 2837:601 JLINK_WriteReg(R8, 0x00000000)  returns 0x00 (0000ms, 1550ms total)
T3D14 2837:601 JLINK_WriteReg(R9, 0x20000438)  returns 0x00 (0000ms, 1550ms total)
T3D14 2837:601 JLINK_WriteReg(R10, 0x00000000)  returns 0x00 (0001ms, 1551ms total)
T3D14 2837:602 JLINK_WriteReg(R11, 0x00000000)  returns 0x00 (0000ms, 1551ms total)
T3D14 2837:602 JLINK_WriteReg(R12, 0x00000000)  returns 0x00 (0000ms, 1551ms total)
T3D14 2837:602 JLINK_WriteReg(R13 (SP), 0x20001000)  returns 0x00 (0000ms, 1551ms total)
T3D14 2837:602 JLINK_WriteReg(R14, 0x20000001)  returns 0x00 (0000ms, 1551ms total)
T3D14 2837:602 JLINK_WriteReg(R15 (PC), 0x20000020)  returns 0x00 (0000ms, 1551ms total)
T3D14 2837:602 JLINK_WriteReg(XPSR, 0x01000000)  returns 0x00 (0000ms, 1551ms total)
T3D14 2837:602 JLINK_WriteReg(MSP, 0x20001000)  returns 0x00 (0000ms, 1551ms total)
T3D14 2837:602 JLINK_WriteReg(PSP, 0x20001000)  returns 0x00 (0000ms, 1551ms total)
T3D14 2837:602 JLINK_WriteReg(CFBP, 0x00000000)  returns 0x00 (0000ms, 1551ms total)
T3D14 2837:602 JLINK_SetBPEx(Addr = 0x20000000, Type = 0xFFFFFFF2) -- CPU_ReadMem(2 bytes @ 0x20000000)  returns 0x00000001 (0001ms, 1552ms total)
T3D14 2837:603 JLINK_Go() -- CPU_WriteMem(2 bytes @ 0x20000000) -- CPU_WriteMem(4 bytes @ 0xE0002008) -- CPU_WriteMem(4 bytes @ 0xE000200C) -- CPU_WriteMem(4 bytes @ 0xE0002010) -- CPU_WriteMem(4 bytes @ 0xE0002014) -- CPU_WriteMem(4 bytes @ 0xE0002018) -- CPU_WriteMem(4 bytes @ 0xE000201C) -- CPU_WriteMem(4 bytes @ 0xE0001004) (0009ms, 1561ms total)
T3D14 2837:612 JLINK_IsHalted() -- CPU_ReadMem(2 bytes @ 0x20000000)  returns TRUE (0003ms, 1564ms total)
T3D14 2837:615 JLINK_ReadReg(R15 (PC))  returns 0x20000000 (0000ms, 1561ms total)
T3D14 2837:615 JLINK_ClrBPEx(BPHandle = 0x00000001)  returns 0x00 (0000ms, 1561ms total)
T3D14 2837:615 JLINK_ReadReg(R0)  returns 0x00000000 (0000ms, 1561ms total)
T3D14 2837:616 JLINK_WriteReg(R0, 0x00000000)  returns 0x00 (0000ms, 1561ms total)
T3D14 2837:616 JLINK_WriteReg(R1, 0x00001000)  returns 0x00 (0000ms, 1561ms total)
T3D14 2837:616 JLINK_WriteReg(R2, 0x000000FF)  returns 0x00 (0000ms, 1561ms total)
T3D14 2837:616 JLINK_WriteReg(R3, 0x00000000)  returns 0x00 (0000ms, 1561ms total)
T3D14 2837:616 JLINK_WriteReg(R4, 0x00000000)  returns 0x00 (0000ms, 1561ms total)
T3D14 2837:616 JLINK_WriteReg(R5, 0x00000000)  returns 0x00 (0000ms, 1561ms total)
T3D14 2837:616 JLINK_WriteReg(R6, 0x00000000)  returns 0x00 (0000ms, 1561ms total)
T3D14 2837:616 JLINK_WriteReg(R7, 0x00000000)  returns 0x00 (0000ms, 1561ms total)
T3D14 2837:616 JLINK_WriteReg(R8, 0x00000000)  returns 0x00 (0000ms, 1561ms total)
T3D14 2837:616 JLINK_WriteReg(R9, 0x20000438)  returns 0x00 (0000ms, 1561ms total)
T3D14 2837:616 JLINK_WriteReg(R10, 0x00000000)  returns 0x00 (0000ms, 1561ms total)
T3D14 2837:616 JLINK_WriteReg(R11, 0x00000000)  returns 0x00 (0000ms, 1561ms total)
T3D14 2837:616 JLINK_WriteReg(R12, 0x00000000)  returns 0x00 (0000ms, 1561ms total)
T3D14 2837:616 JLINK_WriteReg(R13 (SP), 0x20001000)  returns 0x00 (0000ms, 1561ms total)
T3D14 2837:616 JLINK_WriteReg(R14, 0x20000001)  returns 0x00 (0000ms, 1561ms total)
T3D14 2837:616 JLINK_WriteReg(R15 (PC), 0x20000074)  returns 0x00 (0000ms, 1561ms total)
T3D14 2837:616 JLINK_WriteReg(XPSR, 0x01000000)  returns 0x00 (0001ms, 1562ms total)
T3D14 2837:617 JLINK_WriteReg(MSP, 0x20001000)  returns 0x00 (0000ms, 1562ms total)
T3D14 2837:617 JLINK_WriteReg(PSP, 0x20001000)  returns 0x00 (0000ms, 1562ms total)
T3D14 2837:617 JLINK_WriteReg(CFBP, 0x00000000)  returns 0x00 (0000ms, 1562ms total)
T3D14 2837:617 JLINK_SetBPEx(Addr = 0x20000000, Type = 0xFFFFFFF2)  returns 0x00000002 (0000ms, 1562ms total)
T3D14 2837:617 JLINK_Go() (0002ms, 1564ms total)
T3D14 2837:619 JLINK_IsHalted() -- CPU_ReadMem(2 bytes @ 0x20000000)  returns TRUE (0003ms, 1567ms total)
T3D14 2837:622 JLINK_ReadReg(R15 (PC))  returns 0x20000000 (0000ms, 1564ms total)
T3D14 2837:622 JLINK_ClrBPEx(BPHandle = 0x00000002)  returns 0x00 (0000ms, 1564ms total)
T3D14 2837:622 JLINK_ReadReg(R0)  returns 0x00000001 (0000ms, 1564ms total)
T3D14 2837:622 JLINK_WriteReg(R0, 0x00000000)  returns 0x00 (0000ms, 1564ms total)
T3D14 2837:622 JLINK_WriteReg(R1, 0x00001000)  returns 0x00 (0000ms, 1564ms total)
T3D14 2837:622 JLINK_WriteReg(R2, 0x000000FF)  returns 0x00 (0000ms, 1564ms total)
T3D14 2837:622 JLINK_WriteReg(R3, 0x00000000)  returns 0x00 (0000ms, 1564ms total)
T3D14 2837:622 JLINK_WriteReg(R4, 0x00000000)  returns 0x00 (0001ms, 1565ms total)
T3D14 2837:623 JLINK_WriteReg(R5, 0x00000000)  returns 0x00 (0000ms, 1565ms total)
T3D14 2837:623 JLINK_WriteReg(R6, 0x00000000)  returns 0x00 (0000ms, 1565ms total)
T3D14 2837:623 JLINK_WriteReg(R7, 0x00000000)  returns 0x00 (0000ms, 1565ms total)
T3D14 2837:623 JLINK_WriteReg(R8, 0x00000000)  returns 0x00 (0000ms, 1565ms total)
T3D14 2837:623 JLINK_WriteReg(R9, 0x20000438)  returns 0x00 (0000ms, 1565ms total)
T3D14 2837:623 JLINK_WriteReg(R10, 0x00000000)  returns 0x00 (0000ms, 1565ms total)
T3D14 2837:623 JLINK_WriteReg(R11, 0x00000000)  returns 0x00 (0000ms, 1565ms total)
T3D14 2837:623 JLINK_WriteReg(R12, 0x00000000)  returns 0x00 (0000ms, 1565ms total)
T3D14 2837:623 JLINK_WriteReg(R13 (SP), 0x20001000)  returns 0x00 (0000ms, 1565ms total)
T3D14 2837:623 JLINK_WriteReg(R14, 0x20000001)  returns 0x00 (0000ms, 1565ms total)
T3D14 2837:623 JLINK_WriteReg(R15 (PC), 0x200000CA)  returns 0x00 (0000ms, 1565ms total)
T3D14 2837:623 JLINK_WriteReg(XPSR, 0x01000000)  returns 0x00 (0000ms, 1565ms total)
T3D14 2837:623 JLINK_WriteReg(MSP, 0x20001000)  returns 0x00 (0000ms, 1565ms total)
T3D14 2837:623 JLINK_WriteReg(PSP, 0x20001000)  returns 0x00 (0000ms, 1565ms total)
T3D14 2837:623 JLINK_WriteReg(CFBP, 0x00000000)  returns 0x00 (0000ms, 1565ms total)
T3D14 2837:623 JLINK_SetBPEx(Addr = 0x20000000, Type = 0xFFFFFFF2)  returns 0x00000003 (0000ms, 1565ms total)
T3D14 2837:623 JLINK_Go() (0003ms, 1568ms total)
T3D14 2837:626 JLINK_IsHalted()  returns FALSE (0001ms, 1569ms total)
T3D14 2837:699 JLINK_IsHalted() -- CPU_ReadMem(2 bytes @ 0x20000000)  returns TRUE (0003ms, 1571ms total)
T3D14 2837:702 JLINK_ReadReg(R15 (PC))  returns 0x20000000 (0000ms, 1568ms total)
T3D14 2837:703 JLINK_ClrBPEx(BPHandle = 0x00000003)  returns 0x00 (0000ms, 1568ms total)
T3D14 2837:703 JLINK_ReadReg(R0)  returns 0x00000000 (0000ms, 1568ms total)
T3D14 2837:704 JLINK_WriteReg(R0, 0x00001000)  returns 0x00 (0000ms, 1568ms total)
T3D14 2837:704 JLINK_WriteReg(R1, 0x00001000)  returns 0x00 (0000ms, 1568ms total)
T3D14 2837:704 JLINK_WriteReg(R2, 0x000000FF)  returns 0x00 (0000ms, 1568ms total)
T3D14 2837:704 JLINK_WriteReg(R3, 0x00000000)  returns 0x00 (0000ms, 1568ms total)
T3D14 2837:704 JLINK_WriteReg(R4, 0x00000000)  returns 0x00 (0000ms, 1568ms total)
T3D14 2837:704 JLINK_WriteReg(R5, 0x00000000)  returns 0x00 (0000ms, 1568ms total)
T3D14 2837:704 JLINK_WriteReg(R6, 0x00000000)  returns 0x00 (0000ms, 1568ms total)
T3D14 2837:704 JLINK_WriteReg(R7, 0x00000000)  returns 0x00 (0000ms, 1568ms total)
T3D14 2837:704 JLINK_WriteReg(R8, 0x00000000)  returns 0x00 (0000ms, 1568ms total)
T3D14 2837:704 JLINK_WriteReg(R9, 0x20000438)  returns 0x00 (0000ms, 1568ms total)
T3D14 2837:704 JLINK_WriteReg(R10, 0x00000000)  returns 0x00 (0000ms, 1568ms total)
T3D14 2837:704 JLINK_WriteReg(R11, 0x00000000)  returns 0x00 (0000ms, 1568ms total)
T3D14 2837:704 JLINK_WriteReg(R12, 0x00000000)  returns 0x00 (0000ms, 1568ms total)
T3D14 2837:705 JLINK_WriteReg(R13 (SP), 0x20001000)  returns 0x00 (0000ms, 1568ms total)
T3D14 2837:705 JLINK_WriteReg(R14, 0x20000001)  returns 0x00 (0000ms, 1568ms total)
T3D14 2837:705 JLINK_WriteReg(R15 (PC), 0x20000074)  returns 0x00 (0000ms, 1568ms total)
T3D14 2837:705 JLINK_WriteReg(XPSR, 0x01000000)  returns 0x00 (0000ms, 1568ms total)
T3D14 2837:705 JLINK_WriteReg(MSP, 0x20001000)  returns 0x00 (0000ms, 1568ms total)
T3D14 2837:705 JLINK_WriteReg(PSP, 0x20001000)  returns 0x00 (0000ms, 1568ms total)
T3D14 2837:705 JLINK_WriteReg(CFBP, 0x00000000)  returns 0x00 (0000ms, 1568ms total)
T3D14 2837:705 JLINK_SetBPEx(Addr = 0x20000000, Type = 0xFFFFFFF2)  returns 0x00000004 (0000ms, 1568ms total)
T3D14 2837:705 JLINK_Go() (0002ms, 1570ms total)
T3D14 2837:707 JLINK_IsHalted() -- CPU_ReadMem(2 bytes @ 0x20000000)  returns TRUE (0004ms, 1574ms total)
T3D14 2837:711 JLINK_ReadReg(R15 (PC))  returns 0x20000000 (0000ms, 1570ms total)
T3D14 2837:711 JLINK_ClrBPEx(BPHandle = 0x00000004)  returns 0x00 (0000ms, 1570ms total)
T3D14 2837:711 JLINK_ReadReg(R0)  returns 0x00000001 (0000ms, 1570ms total)
T3D14 2837:711 JLINK_WriteReg(R0, 0x00001000)  returns 0x00 (0000ms, 1570ms total)
T3D14 2837:711 JLINK_WriteReg(R1, 0x00001000)  returns 0x00 (0000ms, 1570ms total)
T3D14 2837:711 JLINK_WriteReg(R2, 0x000000FF)  returns 0x00 (0000ms, 1570ms total)
T3D14 2837:711 JLINK_WriteReg(R3, 0x00000000)  returns 0x00 (0000ms, 1570ms total)
T3D14 2837:711 JLINK_WriteReg(R4, 0x00000000)  returns 0x00 (0000ms, 1570ms total)
T3D14 2837:711 JLINK_WriteReg(R5, 0x00000000)  returns 0x00 (0000ms, 1570ms total)
T3D14 2837:711 JLINK_WriteReg(R6, 0x00000000)  returns 0x00 (0000ms, 1570ms total)
T3D14 2837:711 JLINK_WriteReg(R7, 0x00000000)  returns 0x00 (0000ms, 1570ms total)
T3D14 2837:711 JLINK_WriteReg(R8, 0x00000000)  returns 0x00 (0000ms, 1570ms total)
T3D14 2837:711 JLINK_WriteReg(R9, 0x20000438)  returns 0x00 (0000ms, 1570ms total)
T3D14 2837:711 JLINK_WriteReg(R10, 0x00000000)  returns 0x00 (0000ms, 1570ms total)
T3D14 2837:711 JLINK_WriteReg(R11, 0x00000000)  returns 0x00 (0000ms, 1570ms total)
T3D14 2837:711 JLINK_WriteReg(R12, 0x00000000)  returns 0x00 (0000ms, 1570ms total)
T3D14 2837:711 JLINK_WriteReg(R13 (SP), 0x20001000)  returns 0x00 (0001ms, 1571ms total)
T3D14 2837:712 JLINK_WriteReg(R14, 0x20000001)  returns 0x00 (0000ms, 1571ms total)
T3D14 2837:712 JLINK_WriteReg(R15 (PC), 0x200000CA)  returns 0x00 (0000ms, 1571ms total)
T3D14 2837:712 JLINK_WriteReg(XPSR, 0x01000000)  returns 0x00 (0000ms, 1571ms total)
T3D14 2837:712 JLINK_WriteReg(MSP, 0x20001000)  returns 0x00 (0000ms, 1571ms total)
T3D14 2837:712 JLINK_WriteReg(PSP, 0x20001000)  returns 0x00 (0000ms, 1571ms total)
T3D14 2837:712 JLINK_WriteReg(CFBP, 0x00000000)  returns 0x00 (0000ms, 1571ms total)
T3D14 2837:712 JLINK_SetBPEx(Addr = 0x20000000, Type = 0xFFFFFFF2)  returns 0x00000005 (0000ms, 1571ms total)
T3D14 2837:712 JLINK_Go() (0002ms, 1573ms total)
T3D14 2837:714 JLINK_IsHalted()  returns FALSE (0001ms, 1574ms total)
T3D14 2837:717 JLINK_IsHalted()  returns FALSE (0000ms, 1573ms total)
T3D14 2837:720 JLINK_IsHalted()  returns FALSE (0000ms, 1573ms total)
T3D14 2837:722 JLINK_IsHalted() -- CPU_ReadMem(2 bytes @ 0x20000000)  returns TRUE (0003ms, 1576ms total)
T3D14 2837:725 JLINK_ReadReg(R15 (PC))  returns 0x20000000 (0001ms, 1574ms total)
T3D14 2837:726 JLINK_ClrBPEx(BPHandle = 0x00000005)  returns 0x00 (0000ms, 1574ms total)
T3D14 2837:726 JLINK_ReadReg(R0)  returns 0x00000000 (0000ms, 1574ms total)
T3D14 2837:727 JLINK_WriteReg(R0, 0x00002000)  returns 0x00 (0000ms, 1574ms total)
T3D14 2837:727 JLINK_WriteReg(R1, 0x00001000)  returns 0x00 (0000ms, 1574ms total)
T3D14 2837:727 JLINK_WriteReg(R2, 0x000000FF)  returns 0x00 (0000ms, 1574ms total)
T3D14 2837:727 JLINK_WriteReg(R3, 0x00000000)  returns 0x00 (0000ms, 1574ms total)
T3D14 2837:727 JLINK_WriteReg(R4, 0x00000000)  returns 0x00 (0000ms, 1574ms total)
T3D14 2837:727 JLINK_WriteReg(R5, 0x00000000)  returns 0x00 (0000ms, 1574ms total)
T3D14 2837:727 JLINK_WriteReg(R6, 0x00000000)  returns 0x00 (0000ms, 1574ms total)
T3D14 2837:727 JLINK_WriteReg(R7, 0x00000000)  returns 0x00 (0000ms, 1574ms total)
T3D14 2837:727 JLINK_WriteReg(R8, 0x00000000)  returns 0x00 (0000ms, 1574ms total)
T3D14 2837:727 JLINK_WriteReg(R9, 0x20000438)  returns 0x00 (0000ms, 1574ms total)
T3D14 2837:727 JLINK_WriteReg(R10, 0x00000000)  returns 0x00 (0000ms, 1574ms total)
T3D14 2837:727 JLINK_WriteReg(R11, 0x00000000)  returns 0x00 (0000ms, 1574ms total)
T3D14 2837:727 JLINK_WriteReg(R12, 0x00000000)  returns 0x00 (0000ms, 1574ms total)
T3D14 2837:727 JLINK_WriteReg(R13 (SP), 0x20001000)  returns 0x00 (0000ms, 1574ms total)
T3D14 2837:727 JLINK_WriteReg(R14, 0x20000001)  returns 0x00 (0000ms, 1574ms total)
T3D14 2837:727 JLINK_WriteReg(R15 (PC), 0x20000074)  returns 0x00 (0000ms, 1574ms total)
T3D14 2837:727 JLINK_WriteReg(XPSR, 0x01000000)  returns 0x00 (0000ms, 1574ms total)
T3D14 2837:727 JLINK_WriteReg(MSP, 0x20001000)  returns 0x00 (0000ms, 1574ms total)
T3D14 2837:727 JLINK_WriteReg(PSP, 0x20001000)  returns 0x00 (0000ms, 1574ms total)
T3D14 2837:728 JLINK_WriteReg(CFBP, 0x00000000)  returns 0x00 (0000ms, 1574ms total)
T3D14 2837:728 JLINK_SetBPEx(Addr = 0x20000000, Type = 0xFFFFFFF2)  returns 0x00000006 (0000ms, 1574ms total)
T3D14 2837:728 JLINK_Go() (0002ms, 1576ms total)
T3D14 2837:730 JLINK_IsHalted() -- CPU_ReadMem(2 bytes @ 0x20000000)  returns TRUE (0003ms, 1579ms total)
T3D14 2837:733 JLINK_ReadReg(R15 (PC))  returns 0x20000000 (0000ms, 1576ms total)
T3D14 2837:733 JLINK_ClrBPEx(BPHandle = 0x00000006)  returns 0x00 (0000ms, 1576ms total)
T3D14 2837:733 JLINK_ReadReg(R0)  returns 0x00000001 (0000ms, 1576ms total)
T3D14 2837:733 JLINK_WriteReg(R0, 0x00002000)  returns 0x00 (0000ms, 1576ms total)
T3D14 2837:733 JLINK_WriteReg(R1, 0x00001000)  returns 0x00 (0000ms, 1576ms total)
T3D14 2837:733 JLINK_WriteReg(R2, 0x000000FF)  returns 0x00 (0000ms, 1576ms total)
T3D14 2837:734 JLINK_WriteReg(R3, 0x00000000)  returns 0x00 (0000ms, 1576ms total)
T3D14 2837:734 JLINK_WriteReg(R4, 0x00000000)  returns 0x00 (0000ms, 1576ms total)
T3D14 2837:734 JLINK_WriteReg(R5, 0x00000000)  returns 0x00 (0000ms, 1576ms total)
T3D14 2837:734 JLINK_WriteReg(R6, 0x00000000)  returns 0x00 (0000ms, 1576ms total)
T3D14 2837:734 JLINK_WriteReg(R7, 0x00000000)  returns 0x00 (0000ms, 1576ms total)
T3D14 2837:734 JLINK_WriteReg(R8, 0x00000000)  returns 0x00 (0000ms, 1576ms total)
T3D14 2837:734 JLINK_WriteReg(R9, 0x20000438)  returns 0x00 (0000ms, 1576ms total)
T3D14 2837:734 JLINK_WriteReg(R10, 0x00000000)  returns 0x00 (0000ms, 1576ms total)
T3D14 2837:734 JLINK_WriteReg(R11, 0x00000000)  returns 0x00 (0000ms, 1576ms total)
T3D14 2837:734 JLINK_WriteReg(R12, 0x00000000)  returns 0x00 (0000ms, 1576ms total)
T3D14 2837:734 JLINK_WriteReg(R13 (SP), 0x20001000)  returns 0x00 (0000ms, 1576ms total)
T3D14 2837:734 JLINK_WriteReg(R14, 0x20000001)  returns 0x00 (0000ms, 1576ms total)
T3D14 2837:734 JLINK_WriteReg(R15 (PC), 0x200000CA)  returns 0x00 (0000ms, 1576ms total)
T3D14 2837:734 JLINK_WriteReg(XPSR, 0x01000000)  returns 0x00 (0000ms, 1576ms total)
T3D14 2837:734 JLINK_WriteReg(MSP, 0x20001000)  returns 0x00 (0000ms, 1576ms total)
T3D14 2837:734 JLINK_WriteReg(PSP, 0x20001000)  returns 0x00 (0000ms, 1576ms total)
T3D14 2837:734 JLINK_WriteReg(CFBP, 0x00000000)  returns 0x00 (0000ms, 1576ms total)
T3D14 2837:734 JLINK_SetBPEx(Addr = 0x20000000, Type = 0xFFFFFFF2)  returns 0x00000007 (0000ms, 1576ms total)
T3D14 2837:734 JLINK_Go() (0003ms, 1579ms total)
T3D14 2837:737 JLINK_IsHalted()  returns FALSE (0000ms, 1579ms total)
T3D14 2837:740 JLINK_IsHalted()  returns FALSE (0001ms, 1580ms total)
T3D14 2837:747 JLINK_IsHalted() -- CPU_ReadMem(2 bytes @ 0x20000000)  returns TRUE (0003ms, 1582ms total)
T3D14 2837:750 JLINK_ReadReg(R15 (PC))  returns 0x20000000 (0000ms, 1579ms total)
T3D14 2837:750 JLINK_ClrBPEx(BPHandle = 0x00000007)  returns 0x00 (0000ms, 1579ms total)
T3D14 2837:750 JLINK_ReadReg(R0)  returns 0x00000000 (0000ms, 1579ms total)
T3D14 2837:752 JLINK_WriteReg(R0, 0x00003000)  returns 0x00 (0000ms, 1579ms total)
T3D14 2837:752 JLINK_WriteReg(R1, 0x00001000)  returns 0x00 (0000ms, 1579ms total)
T3D14 2837:752 JLINK_WriteReg(R2, 0x000000FF)  returns 0x00 (0000ms, 1579ms total)
T3D14 2837:752 JLINK_WriteReg(R3, 0x00000000)  returns 0x00 (0000ms, 1579ms total)
T3D14 2837:752 JLINK_WriteReg(R4, 0x00000000)  returns 0x00 (0000ms, 1579ms total)
T3D14 2837:752 JLINK_WriteReg(R5, 0x00000000)  returns 0x00 (0000ms, 1579ms total)
T3D14 2837:752 JLINK_WriteReg(R6, 0x00000000)  returns 0x00 (0000ms, 1579ms total)
T3D14 2837:752 JLINK_WriteReg(R7, 0x00000000)  returns 0x00 (0000ms, 1579ms total)
T3D14 2837:752 JLINK_WriteReg(R8, 0x00000000)  returns 0x00 (0000ms, 1579ms total)
T3D14 2837:752 JLINK_WriteReg(R9, 0x20000438)  returns 0x00 (0000ms, 1579ms total)
T3D14 2837:752 JLINK_WriteReg(R10, 0x00000000)  returns 0x00 (0000ms, 1579ms total)
T3D14 2837:752 JLINK_WriteReg(R11, 0x00000000)  returns 0x00 (0000ms, 1579ms total)
T3D14 2837:752 JLINK_WriteReg(R12, 0x00000000)  returns 0x00 (0000ms, 1579ms total)
T3D14 2837:752 JLINK_WriteReg(R13 (SP), 0x20001000)  returns 0x00 (0000ms, 1579ms total)
T3D14 2837:752 JLINK_WriteReg(R14, 0x20000001)  returns 0x00 (0000ms, 1579ms total)
T3D14 2837:752 JLINK_WriteReg(R15 (PC), 0x20000074)  returns 0x00 (0000ms, 1579ms total)
T3D14 2837:752 JLINK_WriteReg(XPSR, 0x01000000)  returns 0x00 (0000ms, 1579ms total)
T3D14 2837:752 JLINK_WriteReg(MSP, 0x20001000)  returns 0x00 (0000ms, 1579ms total)
T3D14 2837:752 JLINK_WriteReg(PSP, 0x20001000)  returns 0x00 (0000ms, 1579ms total)
T3D14 2837:752 JLINK_WriteReg(CFBP, 0x00000000)  returns 0x00 (0000ms, 1579ms total)
T3D14 2837:752 JLINK_SetBPEx(Addr = 0x20000000, Type = 0xFFFFFFF2)  returns 0x00000008 (0001ms, 1580ms total)
T3D14 2837:753 JLINK_Go() (0002ms, 1582ms total)
T3D14 2837:755 JLINK_IsHalted() -- CPU_ReadMem(2 bytes @ 0x20000000)  returns TRUE (0003ms, 1585ms total)
T3D14 2837:758 JLINK_ReadReg(R15 (PC))  returns 0x20000000 (0000ms, 1582ms total)
T3D14 2837:758 JLINK_ClrBPEx(BPHandle = 0x00000008)  returns 0x00 (0000ms, 1582ms total)
T3D14 2837:758 JLINK_ReadReg(R0)  returns 0x00000001 (0001ms, 1583ms total)
T3D14 2837:759 JLINK_WriteReg(R0, 0x00003000)  returns 0x00 (0000ms, 1583ms total)
T3D14 2837:759 JLINK_WriteReg(R1, 0x00001000)  returns 0x00 (0000ms, 1583ms total)
T3D14 2837:759 JLINK_WriteReg(R2, 0x000000FF)  returns 0x00 (0000ms, 1583ms total)
T3D14 2837:759 JLINK_WriteReg(R3, 0x00000000)  returns 0x00 (0000ms, 1583ms total)
T3D14 2837:759 JLINK_WriteReg(R4, 0x00000000)  returns 0x00 (0000ms, 1583ms total)
T3D14 2837:759 JLINK_WriteReg(R5, 0x00000000)  returns 0x00 (0000ms, 1583ms total)
T3D14 2837:759 JLINK_WriteReg(R6, 0x00000000)  returns 0x00 (0000ms, 1583ms total)
T3D14 2837:759 JLINK_WriteReg(R7, 0x00000000)  returns 0x00 (0000ms, 1583ms total)
T3D14 2837:759 JLINK_WriteReg(R8, 0x00000000)  returns 0x00 (0000ms, 1583ms total)
T3D14 2837:759 JLINK_WriteReg(R9, 0x20000438)  returns 0x00 (0000ms, 1583ms total)
T3D14 2837:759 JLINK_WriteReg(R10, 0x00000000)  returns 0x00 (0000ms, 1583ms total)
T3D14 2837:759 JLINK_WriteReg(R11, 0x00000000)  returns 0x00 (0000ms, 1583ms total)
T3D14 2837:759 JLINK_WriteReg(R12, 0x00000000)  returns 0x00 (0000ms, 1583ms total)
T3D14 2837:759 JLINK_WriteReg(R13 (SP), 0x20001000)  returns 0x00 (0000ms, 1583ms total)
T3D14 2837:759 JLINK_WriteReg(R14, 0x20000001)  returns 0x00 (0000ms, 1583ms total)
T3D14 2837:759 JLINK_WriteReg(R15 (PC), 0x200000CA)  returns 0x00 (0000ms, 1583ms total)
T3D14 2837:759 JLINK_WriteReg(XPSR, 0x01000000)  returns 0x00 (0000ms, 1583ms total)
T3D14 2837:759 JLINK_WriteReg(MSP, 0x20001000)  returns 0x00 (0000ms, 1583ms total)
T3D14 2837:759 JLINK_WriteReg(PSP, 0x20001000)  returns 0x00 (0000ms, 1583ms total)
T3D14 2837:759 JLINK_WriteReg(CFBP, 0x00000000)  returns 0x00 (0000ms, 1583ms total)
T3D14 2837:759 JLINK_SetBPEx(Addr = 0x20000000, Type = 0xFFFFFFF2)  returns 0x00000009 (0000ms, 1583ms total)
T3D14 2837:759 JLINK_Go() (0003ms, 1586ms total)
T3D14 2837:762 JLINK_IsHalted()  returns FALSE (0000ms, 1586ms total)
T3D14 2837:764 JLINK_IsHalted()  returns FALSE (0001ms, 1587ms total)
T3D14 2837:767 JLINK_IsHalted()  returns FALSE (0001ms, 1587ms total)
T3D14 2837:770 JLINK_IsHalted() -- CPU_ReadMem(2 bytes @ 0x20000000)  returns TRUE (0003ms, 1589ms total)
T3D14 2837:773 JLINK_ReadReg(R15 (PC))  returns 0x20000000 (0000ms, 1586ms total)
T3D14 2837:773 JLINK_ClrBPEx(BPHandle = 0x00000009)  returns 0x00 (0000ms, 1586ms total)
T3D14 2837:773 JLINK_ReadReg(R0)  returns 0x00000000 (0000ms, 1586ms total)
T3D14 2837:775 JLINK_WriteReg(R0, 0x00004000)  returns 0x00 (0000ms, 1586ms total)
T3D14 2837:775 JLINK_WriteReg(R1, 0x00001000)  returns 0x00 (0000ms, 1586ms total)
T3D14 2837:775 JLINK_WriteReg(R2, 0x000000FF)  returns 0x00 (0000ms, 1586ms total)
T3D14 2837:775 JLINK_WriteReg(R3, 0x00000000)  returns 0x00 (0000ms, 1586ms total)
T3D14 2837:775 JLINK_WriteReg(R4, 0x00000000)  returns 0x00 (0000ms, 1586ms total)
T3D14 2837:775 JLINK_WriteReg(R5, 0x00000000)  returns 0x00 (0000ms, 1586ms total)
T3D14 2837:775 JLINK_WriteReg(R6, 0x00000000)  returns 0x00 (0000ms, 1586ms total)
T3D14 2837:775 JLINK_WriteReg(R7, 0x00000000)  returns 0x00 (0000ms, 1586ms total)
T3D14 2837:775 JLINK_WriteReg(R8, 0x00000000)  returns 0x00 (0000ms, 1586ms total)
T3D14 2837:775 JLINK_WriteReg(R9, 0x20000438)  returns 0x00 (0000ms, 1586ms total)
T3D14 2837:775 JLINK_WriteReg(R10, 0x00000000)  returns 0x00 (0000ms, 1586ms total)
T3D14 2837:775 JLINK_WriteReg(R11, 0x00000000)  returns 0x00 (0000ms, 1586ms total)
T3D14 2837:775 JLINK_WriteReg(R12, 0x00000000)  returns 0x00 (0000ms, 1586ms total)
T3D14 2837:775 JLINK_WriteReg(R13 (SP), 0x20001000)  returns 0x00 (0000ms, 1586ms total)
T3D14 2837:775 JLINK_WriteReg(R14, 0x20000001)  returns 0x00 (0000ms, 1586ms total)
T3D14 2837:775 JLINK_WriteReg(R15 (PC), 0x20000074)  returns 0x00 (0000ms, 1586ms total)
T3D14 2837:775 JLINK_WriteReg(XPSR, 0x01000000)  returns 0x00 (0000ms, 1586ms total)
T3D14 2837:775 JLINK_WriteReg(MSP, 0x20001000)  returns 0x00 (0000ms, 1586ms total)
T3D14 2837:775 JLINK_WriteReg(PSP, 0x20001000)  returns 0x00 (0000ms, 1586ms total)
T3D14 2837:775 JLINK_WriteReg(CFBP, 0x00000000)  returns 0x00 (0001ms, 1587ms total)
T3D14 2837:776 JLINK_SetBPEx(Addr = 0x20000000, Type = 0xFFFFFFF2)  returns 0x0000000A (0000ms, 1587ms total)
T3D14 2837:776 JLINK_Go() (0002ms, 1589ms total)
T3D14 2837:778 JLINK_IsHalted() -- CPU_ReadMem(2 bytes @ 0x20000000)  returns TRUE (0003ms, 1592ms total)
T3D14 2837:781 JLINK_ReadReg(R15 (PC))  returns 0x20000000 (0000ms, 1589ms total)
T3D14 2837:781 JLINK_ClrBPEx(BPHandle = 0x0000000A)  returns 0x00 (0000ms, 1589ms total)
T3D14 2837:781 JLINK_ReadReg(R0)  returns 0x00000001 (0000ms, 1589ms total)
T3D14 2837:781 JLINK_WriteReg(R0, 0x00004000)  returns 0x00 (0001ms, 1590ms total)
T3D14 2837:782 JLINK_WriteReg(R1, 0x00001000)  returns 0x00 (0000ms, 1590ms total)
T3D14 2837:782 JLINK_WriteReg(R2, 0x000000FF)  returns 0x00 (0000ms, 1590ms total)
T3D14 2837:782 JLINK_WriteReg(R3, 0x00000000)  returns 0x00 (0000ms, 1590ms total)
T3D14 2837:782 JLINK_WriteReg(R4, 0x00000000)  returns 0x00 (0000ms, 1590ms total)
T3D14 2837:782 JLINK_WriteReg(R5, 0x00000000)  returns 0x00 (0000ms, 1590ms total)
T3D14 2837:782 JLINK_WriteReg(R6, 0x00000000)  returns 0x00 (0000ms, 1590ms total)
T3D14 2837:782 JLINK_WriteReg(R7, 0x00000000)  returns 0x00 (0000ms, 1590ms total)
T3D14 2837:782 JLINK_WriteReg(R8, 0x00000000)  returns 0x00 (0000ms, 1590ms total)
T3D14 2837:782 JLINK_WriteReg(R9, 0x20000438)  returns 0x00 (0000ms, 1590ms total)
T3D14 2837:782 JLINK_WriteReg(R10, 0x00000000)  returns 0x00 (0000ms, 1590ms total)
T3D14 2837:782 JLINK_WriteReg(R11, 0x00000000)  returns 0x00 (0000ms, 1590ms total)
T3D14 2837:782 JLINK_WriteReg(R12, 0x00000000)  returns 0x00 (0000ms, 1590ms total)
T3D14 2837:782 JLINK_WriteReg(R13 (SP), 0x20001000)  returns 0x00 (0000ms, 1590ms total)
T3D14 2837:782 JLINK_WriteReg(R14, 0x20000001)  returns 0x00 (0000ms, 1590ms total)
T3D14 2837:782 JLINK_WriteReg(R15 (PC), 0x200000CA)  returns 0x00 (0000ms, 1590ms total)
T3D14 2837:782 JLINK_WriteReg(XPSR, 0x01000000)  returns 0x00 (0000ms, 1590ms total)
T3D14 2837:782 JLINK_WriteReg(MSP, 0x20001000)  returns 0x00 (0000ms, 1590ms total)
T3D14 2837:782 JLINK_WriteReg(PSP, 0x20001000)  returns 0x00 (0000ms, 1590ms total)
T3D14 2837:782 JLINK_WriteReg(CFBP, 0x00000000)  returns 0x00 (0000ms, 1590ms total)
T3D14 2837:782 JLINK_SetBPEx(Addr = 0x20000000, Type = 0xFFFFFFF2)  returns 0x0000000B (0000ms, 1590ms total)
T3D14 2837:783 JLINK_Go() (0002ms, 1593ms total)
T3D14 2837:785 JLINK_IsHalted()  returns FALSE (0000ms, 1593ms total)
T3D14 2837:791 JLINK_IsHalted() -- CPU_ReadMem(2 bytes @ 0x20000000)  returns TRUE (0003ms, 1596ms total)
T3D14 2837:794 JLINK_ReadReg(R15 (PC))  returns 0x20000000 (0000ms, 1593ms total)
T3D14 2837:794 JLINK_ClrBPEx(BPHandle = 0x0000000B)  returns 0x00 (0000ms, 1593ms total)
T3D14 2837:794 JLINK_ReadReg(R0)  returns 0x00000000 (0000ms, 1593ms total)
T3D14 2837:795 JLINK_WriteReg(R0, 0x00005000)  returns 0x00 (0001ms, 1594ms total)
T3D14 2837:796 JLINK_WriteReg(R1, 0x00001000)  returns 0x00 (0000ms, 1594ms total)
T3D14 2837:796 JLINK_WriteReg(R2, 0x000000FF)  returns 0x00 (0000ms, 1594ms total)
T3D14 2837:796 JLINK_WriteReg(R3, 0x00000000)  returns 0x00 (0000ms, 1594ms total)
T3D14 2837:796 JLINK_WriteReg(R4, 0x00000000)  returns 0x00 (0000ms, 1594ms total)
T3D14 2837:796 JLINK_WriteReg(R5, 0x00000000)  returns 0x00 (0000ms, 1594ms total)
T3D14 2837:796 JLINK_WriteReg(R6, 0x00000000)  returns 0x00 (0000ms, 1594ms total)
T3D14 2837:796 JLINK_WriteReg(R7, 0x00000000)  returns 0x00 (0000ms, 1594ms total)
T3D14 2837:796 JLINK_WriteReg(R8, 0x00000000)  returns 0x00 (0000ms, 1594ms total)
T3D14 2837:796 JLINK_WriteReg(R9, 0x20000438)  returns 0x00 (0000ms, 1594ms total)
T3D14 2837:796 JLINK_WriteReg(R10, 0x00000000)  returns 0x00 (0000ms, 1594ms total)
T3D14 2837:796 JLINK_WriteReg(R11, 0x00000000)  returns 0x00 (0000ms, 1594ms total)
T3D14 2837:796 JLINK_WriteReg(R12, 0x00000000)  returns 0x00 (0000ms, 1594ms total)
T3D14 2837:796 JLINK_WriteReg(R13 (SP), 0x20001000)  returns 0x00 (0000ms, 1594ms total)
T3D14 2837:796 JLINK_WriteReg(R14, 0x20000001)  returns 0x00 (0000ms, 1594ms total)
T3D14 2837:796 JLINK_WriteReg(R15 (PC), 0x20000074)  returns 0x00 (0000ms, 1594ms total)
T3D14 2837:796 JLINK_WriteReg(XPSR, 0x01000000)  returns 0x00 (0000ms, 1594ms total)
T3D14 2837:796 JLINK_WriteReg(MSP, 0x20001000)  returns 0x00 (0000ms, 1594ms total)
T3D14 2837:796 JLINK_WriteReg(PSP, 0x20001000)  returns 0x00 (0000ms, 1594ms total)
T3D14 2837:796 JLINK_WriteReg(CFBP, 0x00000000)  returns 0x00 (0000ms, 1594ms total)
T3D14 2837:796 JLINK_SetBPEx(Addr = 0x20000000, Type = 0xFFFFFFF2)  returns 0x0000000C (0000ms, 1594ms total)
T3D14 2837:796 JLINK_Go() (0003ms, 1597ms total)
T3D14 2837:799 JLINK_IsHalted() -- CPU_ReadMem(2 bytes @ 0x20000000)  returns TRUE (0003ms, 1600ms total)
T3D14 2837:802 JLINK_ReadReg(R15 (PC))  returns 0x20000000 (0000ms, 1597ms total)
T3D14 2837:802 JLINK_ClrBPEx(BPHandle = 0x0000000C)  returns 0x00 (0000ms, 1597ms total)
T3D14 2837:802 JLINK_ReadReg(R0)  returns 0x00000001 (0000ms, 1597ms total)
T3D14 2837:802 JLINK_WriteReg(R0, 0x00005000)  returns 0x00 (0000ms, 1597ms total)
T3D14 2837:802 JLINK_WriteReg(R1, 0x00001000)  returns 0x00 (0000ms, 1597ms total)
T3D14 2837:802 JLINK_WriteReg(R2, 0x000000FF)  returns 0x00 (0000ms, 1597ms total)
T3D14 2837:802 JLINK_WriteReg(R3, 0x00000000)  returns 0x00 (0000ms, 1597ms total)
T3D14 2837:802 JLINK_WriteReg(R4, 0x00000000)  returns 0x00 (0000ms, 1597ms total)
T3D14 2837:802 JLINK_WriteReg(R5, 0x00000000)  returns 0x00 (0001ms, 1598ms total)
T3D14 2837:803 JLINK_WriteReg(R6, 0x00000000)  returns 0x00 (0000ms, 1598ms total)
T3D14 2837:803 JLINK_WriteReg(R7, 0x00000000)  returns 0x00 (0000ms, 1598ms total)
T3D14 2837:803 JLINK_WriteReg(R8, 0x00000000)  returns 0x00 (0000ms, 1598ms total)
T3D14 2837:803 JLINK_WriteReg(R9, 0x20000438)  returns 0x00 (0000ms, 1598ms total)
T3D14 2837:803 JLINK_WriteReg(R10, 0x00000000)  returns 0x00 (0000ms, 1598ms total)
T3D14 2837:803 JLINK_WriteReg(R11, 0x00000000)  returns 0x00 (0000ms, 1598ms total)
T3D14 2837:803 JLINK_WriteReg(R12, 0x00000000)  returns 0x00 (0000ms, 1598ms total)
T3D14 2837:803 JLINK_WriteReg(R13 (SP), 0x20001000)  returns 0x00 (0000ms, 1598ms total)
T3D14 2837:803 JLINK_WriteReg(R14, 0x20000001)  returns 0x00 (0000ms, 1598ms total)
T3D14 2837:803 JLINK_WriteReg(R15 (PC), 0x200000CA)  returns 0x00 (0000ms, 1598ms total)
T3D14 2837:803 JLINK_WriteReg(XPSR, 0x01000000)  returns 0x00 (0000ms, 1598ms total)
T3D14 2837:803 JLINK_WriteReg(MSP, 0x20001000)  returns 0x00 (0000ms, 1598ms total)
T3D14 2837:803 JLINK_WriteReg(PSP, 0x20001000)  returns 0x00 (0000ms, 1598ms total)
T3D14 2837:803 JLINK_WriteReg(CFBP, 0x00000000)  returns 0x00 (0000ms, 1598ms total)
T3D14 2837:803 JLINK_SetBPEx(Addr = 0x20000000, Type = 0xFFFFFFF2)  returns 0x0000000D (0000ms, 1598ms total)
T3D14 2837:804 JLINK_Go() (0002ms, 1600ms total)
T3D14 2837:806 JLINK_IsHalted()  returns FALSE (0001ms, 1601ms total)
T3D14 2837:811 JLINK_IsHalted()  returns FALSE (0000ms, 1600ms total)
T3D14 2837:814 JLINK_IsHalted() -- CPU_ReadMem(2 bytes @ 0x20000000)  returns TRUE (0003ms, 1603ms total)
T3D14 2837:817 JLINK_ReadReg(R15 (PC))  returns 0x20000000 (0000ms, 1600ms total)
T3D14 2837:817 JLINK_ClrBPEx(BPHandle = 0x0000000D)  returns 0x00 (0000ms, 1600ms total)
T3D14 2837:817 JLINK_ReadReg(R0)  returns 0x00000000 (0000ms, 1600ms total)
T3D14 2837:818 JLINK_WriteReg(R0, 0x00000001)  returns 0x00 (0000ms, 1600ms total)
T3D14 2837:818 JLINK_WriteReg(R1, 0x00001000)  returns 0x00 (0000ms, 1600ms total)
T3D14 2837:818 JLINK_WriteReg(R2, 0x000000FF)  returns 0x00 (0000ms, 1600ms total)
T3D14 2837:818 JLINK_WriteReg(R3, 0x00000000)  returns 0x00 (0000ms, 1600ms total)
T3D14 2837:818 JLINK_WriteReg(R4, 0x00000000)  returns 0x00 (0000ms, 1600ms total)
T3D14 2837:818 JLINK_WriteReg(R5, 0x00000000)  returns 0x00 (0000ms, 1600ms total)
T3D14 2837:818 JLINK_WriteReg(R6, 0x00000000)  returns 0x00 (0000ms, 1600ms total)
T3D14 2837:818 JLINK_WriteReg(R7, 0x00000000)  returns 0x00 (0000ms, 1600ms total)
T3D14 2837:818 JLINK_WriteReg(R8, 0x00000000)  returns 0x00 (0000ms, 1600ms total)
T3D14 2837:818 JLINK_WriteReg(R9, 0x20000438)  returns 0x00 (0000ms, 1600ms total)
T3D14 2837:818 JLINK_WriteReg(R10, 0x00000000)  returns 0x00 (0000ms, 1600ms total)
T3D14 2837:818 JLINK_WriteReg(R11, 0x00000000)  returns 0x00 (0001ms, 1601ms total)
T3D14 2837:819 JLINK_WriteReg(R12, 0x00000000)  returns 0x00 (0000ms, 1601ms total)
T3D14 2837:819 JLINK_WriteReg(R13 (SP), 0x20001000)  returns 0x00 (0000ms, 1601ms total)
T3D14 2837:819 JLINK_WriteReg(R14, 0x20000001)  returns 0x00 (0000ms, 1601ms total)
T3D14 2837:819 JLINK_WriteReg(R15 (PC), 0x20000070)  returns 0x00 (0000ms, 1601ms total)
T3D14 2837:819 JLINK_WriteReg(XPSR, 0x01000000)  returns 0x00 (0000ms, 1601ms total)
T3D14 2837:819 JLINK_WriteReg(MSP, 0x20001000)  returns 0x00 (0000ms, 1601ms total)
T3D14 2837:819 JLINK_WriteReg(PSP, 0x20001000)  returns 0x00 (0000ms, 1601ms total)
T3D14 2837:819 JLINK_WriteReg(CFBP, 0x00000000)  returns 0x00 (0000ms, 1601ms total)
T3D14 2837:819 JLINK_SetBPEx(Addr = 0x20000000, Type = 0xFFFFFFF2)  returns 0x0000000E (0000ms, 1601ms total)
T3D14 2837:819 JLINK_Go() (0002ms, 1603ms total)
T3D14 2837:821 JLINK_IsHalted() -- CPU_ReadMem(2 bytes @ 0x20000000)  returns TRUE (0004ms, 1607ms total)
T3D14 2837:825 JLINK_ReadReg(R15 (PC))  returns 0x20000000 (0000ms, 1603ms total)
T3D14 2837:825 JLINK_ClrBPEx(BPHandle = 0x0000000E)  returns 0x00 (0000ms, 1603ms total)
T3D14 2837:825 JLINK_ReadReg(R0)  returns 0x00000000 (0000ms, 1603ms total)
T3D14 2837:890 JLINK_WriteMem(0x20000000, 0x0440 Bytes, ...) - Data: 00 BE 0A E0 0D 78 2D 06 68 40 08 24 40 00 00 D3 ... -- CPU_WriteMem(1088 bytes @ 0x20000000)  returns 0x440 (0003ms, 1606ms total)
T3D14 2837:894 JLINK_WriteReg(R0, 0x00000000)  returns 0x00 (0000ms, 1606ms total)
T3D14 2837:894 JLINK_WriteReg(R1, 0x00B71B00)  returns 0x00 (0000ms, 1606ms total)
T3D14 2837:894 JLINK_WriteReg(R2, 0x00000002)  returns 0x00 (0000ms, 1606ms total)
T3D14 2837:894 JLINK_WriteReg(R3, 0x00000000)  returns 0x00 (0000ms, 1606ms total)
T3D14 2837:894 JLINK_WriteReg(R4, 0x00000000)  returns 0x00 (0000ms, 1606ms total)
T3D14 2837:894 JLINK_WriteReg(R5, 0x00000000)  returns 0x00 (0000ms, 1606ms total)
T3D14 2837:894 JLINK_WriteReg(R6, 0x00000000)  returns 0x00 (0000ms, 1606ms total)
T3D14 2837:894 JLINK_WriteReg(R7, 0x00000000)  returns 0x00 (0000ms, 1606ms total)
T3D14 2837:894 JLINK_WriteReg(R8, 0x00000000)  returns 0x00 (0000ms, 1606ms total)
T3D14 2837:894 JLINK_WriteReg(R9, 0x20000438)  returns 0x00 (0000ms, 1606ms total)
T3D14 2837:894 JLINK_WriteReg(R10, 0x00000000)  returns 0x00 (0000ms, 1606ms total)
T3D14 2837:894 JLINK_WriteReg(R11, 0x00000000)  returns 0x00 (0000ms, 1606ms total)
T3D14 2837:894 JLINK_WriteReg(R12, 0x00000000)  returns 0x00 (0000ms, 1606ms total)
T3D14 2837:894 JLINK_WriteReg(R13 (SP), 0x20001000)  returns 0x00 (0000ms, 1606ms total)
T3D14 2837:894 JLINK_WriteReg(R14, 0x20000001)  returns 0x00 (0000ms, 1606ms total)
T3D14 2837:894 JLINK_WriteReg(R15 (PC), 0x20000020)  returns 0x00 (0000ms, 1606ms total)
T3D14 2837:894 JLINK_WriteReg(XPSR, 0x01000000)  returns 0x00 (0000ms, 1606ms total)
T3D14 2837:894 JLINK_WriteReg(MSP, 0x20001000)  returns 0x00 (0000ms, 1606ms total)
T3D14 2837:894 JLINK_WriteReg(PSP, 0x20001000)  returns 0x00 (0000ms, 1606ms total)
T3D14 2837:894 JLINK_WriteReg(CFBP, 0x00000000)  returns 0x00 (0000ms, 1606ms total)
T3D14 2837:894 JLINK_SetBPEx(Addr = 0x20000000, Type = 0xFFFFFFF2) -- CPU_ReadMem(2 bytes @ 0x20000000)  returns 0x0000000F (0002ms, 1608ms total)
T3D14 2837:896 JLINK_Go() -- CPU_WriteMem(2 bytes @ 0x20000000) (0002ms, 1610ms total)
T3D14 2837:898 JLINK_IsHalted() -- CPU_ReadMem(2 bytes @ 0x20000000)  returns TRUE (0004ms, 1614ms total)
T3D14 2837:902 JLINK_ReadReg(R15 (PC))  returns 0x20000000 (0000ms, 1610ms total)
T3D14 2837:902 JLINK_ClrBPEx(BPHandle = 0x0000000F)  returns 0x00 (0000ms, 1610ms total)
T3D14 2837:902 JLINK_ReadReg(R0)  returns 0x00000000 (0000ms, 1610ms total)
T3D14 2837:903 JLINK_WriteMem(0x20000468, 0x0200 Bytes, ...) - Data: F8 89 00 20 25 04 00 00 31 04 00 00 33 04 00 00 ... -- CPU_WriteMem(512 bytes @ 0x20000468)  returns 0x200 (0002ms, 1612ms total)
T3D14 2837:905 JLINK_WriteReg(R0, 0x00000000)  returns 0x00 (0000ms, 1612ms total)
T3D14 2837:905 JLINK_WriteReg(R1, 0x00000200)  returns 0x00 (0000ms, 1612ms total)
T3D14 2837:905 JLINK_WriteReg(R2, 0x20000468)  returns 0x00 (0000ms, 1612ms total)
T3D14 2837:905 JLINK_WriteReg(R3, 0x00000000)  returns 0x00 (0000ms, 1612ms total)
T3D14 2837:905 JLINK_WriteReg(R4, 0x00000000)  returns 0x00 (0000ms, 1612ms total)
T3D14 2837:905 JLINK_WriteReg(R5, 0x00000000)  returns 0x00 (0000ms, 1612ms total)
T3D14 2837:905 JLINK_WriteReg(R6, 0x00000000)  returns 0x00 (0000ms, 1612ms total)
T3D14 2837:905 JLINK_WriteReg(R7, 0x00000000)  returns 0x00 (0001ms, 1613ms total)
T3D14 2837:906 JLINK_WriteReg(R8, 0x00000000)  returns 0x00 (0000ms, 1613ms total)
T3D14 2837:906 JLINK_WriteReg(R9, 0x20000438)  returns 0x00 (0000ms, 1613ms total)
T3D14 2837:906 JLINK_WriteReg(R10, 0x00000000)  returns 0x00 (0000ms, 1613ms total)
T3D14 2837:906 JLINK_WriteReg(R11, 0x00000000)  returns 0x00 (0000ms, 1613ms total)
T3D14 2837:906 JLINK_WriteReg(R12, 0x00000000)  returns 0x00 (0000ms, 1613ms total)
T3D14 2837:906 JLINK_WriteReg(R13 (SP), 0x20001000)  returns 0x00 (0000ms, 1613ms total)
T3D14 2837:906 JLINK_WriteReg(R14, 0x20000001)  returns 0x00 (0000ms, 1613ms total)
T3D14 2837:906 JLINK_WriteReg(R15 (PC), 0x200000DE)  returns 0x00 (0000ms, 1613ms total)
T3D14 2837:906 JLINK_WriteReg(XPSR, 0x01000000)  returns 0x00 (0000ms, 1613ms total)
T3D14 2837:906 JLINK_WriteReg(MSP, 0x20001000)  returns 0x00 (0000ms, 1613ms total)
T3D14 2837:906 JLINK_WriteReg(PSP, 0x20001000)  returns 0x00 (0000ms, 1613ms total)
T3D14 2837:906 JLINK_WriteReg(CFBP, 0x00000000)  returns 0x00 (0000ms, 1613ms total)
T3D14 2837:906 JLINK_SetBPEx(Addr = 0x20000000, Type = 0xFFFFFFF2)  returns 0x00000010 (0000ms, 1613ms total)
T3D14 2837:906 JLINK_Go() (0002ms, 1615ms total)
T3D14 2837:908 JLINK_IsHalted()  returns FALSE (0001ms, 1616ms total)
T3D14 2837:917 JLINK_IsHalted() -- CPU_ReadMem(2 bytes @ 0x20000000)  returns TRUE (0003ms, 1618ms total)
T3D14 2837:920 JLINK_ReadReg(R15 (PC))  returns 0x20000000 (0000ms, 1615ms total)
T3D14 2837:920 JLINK_ClrBPEx(BPHandle = 0x00000010)  returns 0x00 (0000ms, 1615ms total)
T3D14 2837:920 JLINK_ReadReg(R0)  returns 0x00000000 (0000ms, 1615ms total)
T3D14 2837:922 JLINK_WriteMem(0x20000468, 0x0200 Bytes, ...) - Data: 43 04 00 00 43 04 00 00 43 04 00 00 43 04 00 00 ... -- CPU_WriteMem(512 bytes @ 0x20000468)  returns 0x200 (0002ms, 1617ms total)
T3D14 2837:924 JLINK_WriteReg(R0, 0x00000200)  returns 0x00 (0000ms, 1617ms total)
T3D14 2837:924 JLINK_WriteReg(R1, 0x00000200)  returns 0x00 (0000ms, 1617ms total)
T3D14 2837:924 JLINK_WriteReg(R2, 0x20000468)  returns 0x00 (0000ms, 1617ms total)
T3D14 2837:924 JLINK_WriteReg(R3, 0x00000000)  returns 0x00 (0000ms, 1617ms total)
T3D14 2837:924 JLINK_WriteReg(R4, 0x00000000)  returns 0x00 (0000ms, 1617ms total)
T3D14 2837:924 JLINK_WriteReg(R5, 0x00000000)  returns 0x00 (0000ms, 1617ms total)
T3D14 2837:924 JLINK_WriteReg(R6, 0x00000000)  returns 0x00 (0000ms, 1617ms total)
T3D14 2837:924 JLINK_WriteReg(R7, 0x00000000)  returns 0x00 (0000ms, 1617ms total)
T3D14 2837:924 JLINK_WriteReg(R8, 0x00000000)  returns 0x00 (0000ms, 1617ms total)
T3D14 2837:924 JLINK_WriteReg(R9, 0x20000438)  returns 0x00 (0000ms, 1617ms total)
T3D14 2837:924 JLINK_WriteReg(R10, 0x00000000)  returns 0x00 (0000ms, 1617ms total)
T3D14 2837:924 JLINK_WriteReg(R11, 0x00000000)  returns 0x00 (0000ms, 1617ms total)
T3D14 2837:924 JLINK_WriteReg(R12, 0x00000000)  returns 0x00 (0000ms, 1617ms total)
T3D14 2837:924 JLINK_WriteReg(R13 (SP), 0x20001000)  returns 0x00 (0000ms, 1617ms total)
T3D14 2837:924 JLINK_WriteReg(R14, 0x20000001)  returns 0x00 (0001ms, 1618ms total)
T3D14 2837:925 JLINK_WriteReg(R15 (PC), 0x200000DE)  returns 0x00 (0000ms, 1618ms total)
T3D14 2837:925 JLINK_WriteReg(XPSR, 0x01000000)  returns 0x00 (0000ms, 1618ms total)
T3D14 2837:925 JLINK_WriteReg(MSP, 0x20001000)  returns 0x00 (0000ms, 1618ms total)
T3D14 2837:925 JLINK_WriteReg(PSP, 0x20001000)  returns 0x00 (0000ms, 1618ms total)
T3D14 2837:925 JLINK_WriteReg(CFBP, 0x00000000)  returns 0x00 (0000ms, 1618ms total)
T3D14 2837:925 JLINK_SetBPEx(Addr = 0x20000000, Type = 0xFFFFFFF2)  returns 0x00000011 (0000ms, 1618ms total)
T3D14 2837:925 JLINK_Go() (0003ms, 1621ms total)
T3D14 2837:928 JLINK_IsHalted()  returns FALSE (0000ms, 1621ms total)
T3D14 2837:930 JLINK_IsHalted()  returns FALSE (0001ms, 1622ms total)
T3D14 2837:933 JLINK_IsHalted()  returns FALSE (0001ms, 1622ms total)
T3D14 2837:936 JLINK_IsHalted() -- CPU_ReadMem(2 bytes @ 0x20000000)  returns TRUE (0004ms, 1625ms total)
T3D14 2837:940 JLINK_ReadReg(R15 (PC))  returns 0x20000000 (0000ms, 1621ms total)
T3D14 2837:940 JLINK_ClrBPEx(BPHandle = 0x00000011)  returns 0x00 (0000ms, 1621ms total)
T3D14 2837:940 JLINK_ReadReg(R0)  returns 0x00000000 (0000ms, 1621ms total)
T3D14 2837:940 JLINK_WriteMem(0x20000468, 0x0200 Bytes, ...) - Data: FF FF FF FF FF FF FF FF FF FF FF FF FE FF FF FF ... -- CPU_WriteMem(512 bytes @ 0x20000468)  returns 0x200 (0003ms, 1624ms total)
T3D14 2837:943 JLINK_WriteReg(R0, 0x00000400)  returns 0x00 (0000ms, 1624ms total)
T3D14 2837:943 JLINK_WriteReg(R1, 0x00000200)  returns 0x00 (0000ms, 1624ms total)
T3D14 2837:943 JLINK_WriteReg(R2, 0x20000468)  returns 0x00 (0000ms, 1624ms total)
T3D14 2837:943 JLINK_WriteReg(R3, 0x00000000)  returns 0x00 (0000ms, 1624ms total)
T3D14 2837:943 JLINK_WriteReg(R4, 0x00000000)  returns 0x00 (0000ms, 1624ms total)
T3D14 2837:943 JLINK_WriteReg(R5, 0x00000000)  returns 0x00 (0000ms, 1624ms total)
T3D14 2837:943 JLINK_WriteReg(R6, 0x00000000)  returns 0x00 (0000ms, 1624ms total)
T3D14 2837:943 JLINK_WriteReg(R7, 0x00000000)  returns 0x00 (0000ms, 1624ms total)
T3D14 2837:943 JLINK_WriteReg(R8, 0x00000000)  returns 0x00 (0000ms, 1624ms total)
T3D14 2837:943 JLINK_WriteReg(R9, 0x20000438)  returns 0x00 (0000ms, 1624ms total)
T3D14 2837:943 JLINK_WriteReg(R10, 0x00000000)  returns 0x00 (0000ms, 1624ms total)
T3D14 2837:943 JLINK_WriteReg(R11, 0x00000000)  returns 0x00 (0000ms, 1624ms total)
T3D14 2837:943 JLINK_WriteReg(R12, 0x00000000)  returns 0x00 (0000ms, 1624ms total)
T3D14 2837:943 JLINK_WriteReg(R13 (SP), 0x20001000)  returns 0x00 (0000ms, 1624ms total)
T3D14 2837:944 JLINK_WriteReg(R14, 0x20000001)  returns 0x00 (0000ms, 1625ms total)
T3D14 2837:944 JLINK_WriteReg(R15 (PC), 0x200000DE)  returns 0x00 (0000ms, 1625ms total)
T3D14 2837:944 JLINK_WriteReg(XPSR, 0x01000000)  returns 0x00 (0000ms, 1625ms total)
T3D14 2837:944 JLINK_WriteReg(MSP, 0x20001000)  returns 0x00 (0000ms, 1625ms total)
T3D14 2837:944 JLINK_WriteReg(PSP, 0x20001000)  returns 0x00 (0000ms, 1625ms total)
T3D14 2837:944 JLINK_WriteReg(CFBP, 0x00000000)  returns 0x00 (0000ms, 1625ms total)
